# HZ S RI R 50
200000000 0.07605841535703274 -0.0551130031608122
204000000 0.07455179808794063 -0.05249306106403917
208000000 0.07201781273050112 -0.04965725287951851
212000000 0.06984706697084044 -0.047040968542297994
216000000 0.07007169421640548 -0.04562712942559308
220000000 0.06982414053383916 -0.043471347447046456
224000000 0.06898632729184913 -0.0411425692011348
228000000 0.06682938156678393 -0.03799721459357484
232000000 0.06416100090646482 -0.03501618696345087
236000000 0.06108418466181922 -0.03204643689722909
240000000 0.05708505751825568 -0.028916970262049962
244000000 0.054921467594776036 -0.026723410135285817
248000000 0.053356313068563074 -0.024300028508361105
252000000 0.05050935547007655 -0.0214349518827635
256000000 0.04715884019155648 -0.018558735965515265
260000000 0.04355122143583386 -0.015492353347663293
264000000 0.03944524469926986 -0.012739014412230815
268000000 0.034634748736794015 -0.00992096197847318
272000000 0.03005011316897759 -0.007505167848819496
276000000 0.026707553866570723 -0.004195585299140728
280000000 0.022479781793211747 -0.0016080481252102711
284000000 0.01812569180189369 0.0014564794705863623
288000000 0.012837711696568183 0.004357486650665945
292000000 0.007549775335712285 0.0072345038578293264
296000000 0.002035747875903732 0.009541882816277951
300000000 -0.0036571375392427633 0.011973422621337122
304000000 -0.007968738981708133 0.014250404616982303
308000000 -0.013541359050162346 0.017429716759579023
312000000 -0.019879320817439535 0.020503126428770006
316000000 -0.02562784387917964 0.02266449252881667
320000000 -0.031305978472868756 0.02521908758486552
324000000 -0.03708787647385434 0.027272997850200136
328000000 -0.042167786932453176 0.028551952290851272
332000000 -0.04669911609983645 0.030158662399414747
336000000 -0.0535451617906334 0.03357801335195464
340000000 -0.06058666727045666 0.03660461221026727
344000000 -0.06687258925775058 0.03856179164426887
348000000 -0.07307824698220154 0.040471116895104305
352000000 -0.0771529302861568 0.04149523394120879
356000000 -0.08187983041275425 0.04234732101339236
360000000 -0.0862480386676359 0.042862730604422354
364000000 -0.09128466683203713 0.04570850384739749
368000000 -0.09733587565195877 0.04828594111329095
372000000 -0.10422517810339661 0.05005191457739573
376000000 -0.10865301435161127 0.05130803826371303
380000000 -0.1124884052128347 0.05132888933017231
384000000 -0.11515948919871692 0.05157655768651319
388000000 -0.11635865760367317 0.051107997809873094
392000000 -0.1175950568696841 0.05096307328906683
396000000 -0.12262669071172516 0.052744955711206874
400000000 -0.1266574197404966 0.05401005702476378
404000000 -0.128789478112918 0.05385090628928111
408000000 -0.13002813025555782 0.052471290187249955
412000000 -0.12866362073212084 0.05051367430693771
416000000 -0.12679089095178842 0.04784847513212717
420000000 -0.12253163260530582 0.04667866869832978
424000000 -0.1211117137994203 0.04318736538252512
428000000 -0.11973193384662571 0.041059053533022326
432000000 -0.11691441334254309 0.03678207446964831
436000000 -0.11168996523601309 0.031367945392202785
440000000 -0.10517699144362394 0.024504072161343787
444000000 -0.09655946028580051 0.016223100167976654
448000000 -0.086476569436318 0.007210376177746817
452000000 -0.07587648145835958 -0.0029959895988490087
456000000 -0.06702783442318892 -0.01617974647222457
460000000 -0.05571080804315164 -0.03111519897631003
464000000 -0.043207474266458115 -0.04923375485088879
468000000 -0.02931864253746591 -0.07007495911123586
472000000 -0.015130365646370094 -0.09346799978738787
476000000 -0.0018777513880094184 -0.11915795323972876
480000000 0.010251746590291594 -0.14678339549550826
484000000 0.021244636656805017 -0.18282665809779167
488000000 0.030465546892125526 -0.22439621115397237
492000000 0.03847433376694363 -0.27053599671400597
496000000 0.04223055249479983 -0.3172688734939084
500000000 0.04041800884535842 -0.36507163533277115
504000000 0.034139571176957005 -0.4116649834677048
508000000 0.02154708270742752 -0.4538123116636877
512000000 0.0006681302338307754 -0.49840388471374203
516000000 -0.024523194215023265 -0.5560419029961438
520000000 -0.05506606306881517 -0.6079176438803928
524000000 -0.08690573813085344 -0.6532927841821463
528000000 -0.12081734938322788 -0.6910891789450315
532000000 -0.15487901543320412 -0.7153363685869324
536000000 -0.18886887062019844 -0.7300998436076451
540000000 -0.22149418446240396 -0.7374285778637392
544000000 -0.2634777656228914 -0.7600423363332934
548000000 -0.300523669737017 -0.7846774163980237
552000000 -0.3334516072406424 -0.8014812111224822
556000000 -0.36130307190917194 -0.8161787189435188
560000000 -0.38383352657297487 -0.8184484551530041
564000000 -0.39900033361279935 -0.8125340354971478
568000000 -0.4122058632316051 -0.8038897903502477
572000000 -0.4299537847544322 -0.7968375228247179
576000000 -0.45283182799982713 -0.8148171488349967
580000000 -0.47298203700583086 -0.8268696066712422
584000000 -0.4838043411695068 -0.8344309700522302
588000000 -0.4878302761103285 -0.8407429773990939
592000000 -0.48897862872019415 -0.8363798319824404
596000000 -0.4878298062724519 -0.8275592333430964
600000000 -0.47732411284386894 -0.8143917139648952
