# HZ S RI R 50
200000000 0.07605841535703274 -0.0551130031608122 0.07270611513170536 1.0033943773594074 0 0 0 0
204000000 0.07455179808794063 -0.05249306106403917 0.043699953993936974 1.0014817169582928 0 0 0 0
208000000 0.07201781273050112 -0.04965725287951851 0.016204191645961777 0.9919509258209784 0 0 0 0
212000000 0.06984706697084044 -0.047040968542297994 -0.008078527604891323 0.9851648842668278 0 0 0 0
216000000 0.07007169421640548 -0.04562712942559308 -0.03627607168843986 0.9957883175469594 0 0 0 0
220000000 0.06982414053383916 -0.043471347447046456 -0.06330323032404575 1.0018960935032355 0 0 0 0
224000000 0.06898632729184913 -0.0411425692011348 -0.09337968324588057 1.0042886401808644 0 0 0 0
228000000 0.06682938156678393 -0.03799721459357484 -0.12141566189324444 1.00096545766413 0 0 0 0
232000000 0.06416100090646482 -0.03501618696345087 -0.14749980417462094 0.9873752769101368 0 0 0 0
236000000 0.06108418466181922 -0.03204643689722909 -0.1735643281981012 0.9797188309410632 0 0 0 0
240000000 0.05708505751825568 -0.028916970262049962 -0.1955186199559058 0.9647800987770411 0 0 0 0
244000000 0.054921467594776036 -0.026723410135285817 -0.22062993257251895 0.9647620664817463 0 0 0 0
248000000 0.053356313068563074 -0.024300028508361105 -0.24567762451650457 0.9669663156866208 0 0 0 0
252000000 0.05050935547007655 -0.0214349518827635 -0.27422808107152974 0.9662470806907385 0 0 0 0
256000000 0.04715884019155648 -0.018558735965515265 -0.3014537704585321 0.9592737699962621 0 0 0 0
260000000 0.04355122143583386 -0.015492353347663293 -0.32512096005899277 0.9488785799697363 0 0 0 0
264000000 0.03944524469926986 -0.012739014412230815 -0.34949519697809356 0.9351773875905911 0 0 0 0
268000000 0.034634748736794015 -0.00992096197847318 -0.3667454643236596 0.915686580644813 0 0 0 0
272000000 0.03005011316897759 -0.007505167848819496 -0.38700412460551664 0.9028340261540597 0 0 0 0
276000000 0.026707553866570723 -0.004195585299140728 -0.4128980108175775 0.9024785993646769 0 0 0 0
280000000 0.022479781793211747 -0.0016080481252102711 -0.43729449609800597 0.8979139908917706 0 0 0 0
284000000 0.01812569180189369 0.0014564794705863623 -0.4611954499945099 0.8896716973028316 0 0 0 0
288000000 0.012837711696568183 0.004357486650665945 -0.48215927734533426 0.8781119101275607 0 0 0 0
292000000 0.007549775335712285 0.0072345038578293264 -0.5007625107133088 0.8618639678448918 0 0 0 0
296000000 0.002035747875903732 0.009541882816277951 -0.5179691996219614 0.8423847260379017 0 0 0 0
300000000 -0.0036571375392427633 0.011973422621337122 -0.5294857905450487 0.8205540312932962 0 0 0 0
304000000 -0.007968738981708133 0.014250404616982303 -0.5504986483131712 0.8135284531745857 0 0 0 0
308000000 -0.013541359050162346 0.017429716759579023 -0.5754848585405317 0.8076072119830171 0 0 0 0
312000000 -0.019879320817439535 0.020503126428770006 -0.5988472818976223 0.7989345088380115 0 0 0 0
316000000 -0.02562784387917964 0.02266449252881667 -0.61756923571083 0.7864615447457228 0 0 0 0
320000000 -0.031305978472868756 0.02521908758486552 -0.6339225853448774 0.7683338026617963 0 0 0 0
324000000 -0.03708787647385434 0.027272997850200136 -0.6474721027542782 0.7492909966620441 0 0 0 0
328000000 -0.042167786932453176 0.028551952290851272 -0.653176519735156 0.7279586859209404 0 0 0 0
332000000 -0.04669911609983645 0.030158662399414747 -0.6628044292223212 0.7112831268155493 0 0 0 0
336000000 -0.0535451617906334 0.03357801335195464 -0.6848144708911216 0.704130534401477 0 0 0 0
340000000 -0.06058666727045666 0.03660461221026727 -0.7037347190379672 0.6961059369093545 0 0 0 0
344000000 -0.06687258925775058 0.03856179164426887 -0.7234837835892798 0.681817273449422 0 0 0 0
348000000 -0.07307824698220154 0.040471116895104305 -0.7336504336468075 0.6659802587799462 0 0 0 0
352000000 -0.0771529302861568 0.04149523394120879 -0.741797778134773 0.6476100833947795 0 0 0 0
356000000 -0.08187983041275425 0.04234732101339236 -0.7492258185936517 0.62616991177934 0 0 0 0
360000000 -0.0862480386676359 0.042862730604422354 -0.748113072431668 0.6059599171311196 0 0 0 0
364000000 -0.09128466683203713 0.04570850384739749 -0.7597800940789073 0.5968485259060102 0 0 0 0
368000000 -0.09733587565195877 0.04828594111329095 -0.7786938115290075 0.5890473471986548 0 0 0 0
372000000 -0.10422517810339661 0.05005191457739573 -0.7933432912110404 0.577598763916449 0 0 0 0
376000000 -0.10865301435161127 0.05130803826371303 -0.8032957120304676 0.5636404161899203 0 0 0 0
380000000 -0.1124884052128347 0.05132888933017231 -0.8082292273143529 0.5484111726082138 0 0 0 0
384000000 -0.11515948919871692 0.05157655768651319 -0.8122789574713034 0.529987880039741 0 0 0 0
388000000 -0.11635865760367317 0.051107997809873094 -0.8090989757298542 0.5139959644752617 0 0 0 0
392000000 -0.1175950568696841 0.05096307328906683 -0.8095561342747364 0.5012227412157447 0 0 0 0
396000000 -0.12262669071172516 0.052744955711206874 -0.824916431080466 0.49467453604859574 0 0 0 0
400000000 -0.1266574197404966 0.05401005702476378 -0.8349500384939413 0.48772141665011765 0 0 0 0
404000000 -0.128789478112918 0.05385090628928111 -0.8443505037987171 0.4768784180449873 0 0 0 0
408000000 -0.13002813025555782 0.052471290187249955 -0.8491218901716799 0.46753255607588057 0 0 0 0
412000000 -0.12866362073212084 0.05051367430693771 -0.84871856328222 0.4518565870971166 0 0 0 0
416000000 -0.12679089095178842 0.04784847513212717 -0.8440521160355303 0.4388262734978672 0 0 0 0
420000000 -0.12253163260530582 0.04667866869832978 -0.8341663687199405 0.42560383978037575 0 0 0 0
424000000 -0.1211117137994203 0.04318736538252512 -0.8442116766482528 0.4248231309148083 0 0 0 0
428000000 -0.11973193384662571 0.041059053533022326 -0.8534595423192768 0.4238917634867372 0 0 0 0
432000000 -0.11691441334254309 0.03678207446964831 -0.8606192567102039 0.418400719159373 0 0 0 0
436000000 -0.11168996523601309 0.031367945392202785 -0.8624528518576454 0.4157075332429118 0 0 0 0
440000000 -0.10517699144362394 0.024504072161343787 -0.8604007413779364 0.41335014999135733 0 0 0 0
444000000 -0.09655946028580051 0.016223100167976654 -0.8525140775163671 0.40657164594862666 0 0 0 0
448000000 -0.086476569436318 0.007210376177746817 -0.8388896543615 0.40148042063968614 0 0 0 0
452000000 -0.07587648145835958 -0.0029959895988490087 -0.8290841511720256 0.40540746525329585 0 0 0 0
456000000 -0.06702783442318892 -0.01617974647222457 -0.834974887995459 0.4130520738585656 0 0 0 0
460000000 -0.05571080804315164 -0.03111519897631003 -0.8348375922474799 0.41935810906035437 0 0 0 0
464000000 -0.043207474266458115 -0.04923375485088879 -0.8249809703749004 0.4250248460921148 0 0 0 0
468000000 -0.02931864253746591 -0.07007495911123586 -0.8183404312213516 0.4322607572639346 0 0 0 0
472000000 -0.015130365646370094 -0.09346799978738787 -0.8023909026067189 0.44121677419400146 0 0 0 0
476000000 -0.0018777513880094184 -0.11915795323972876 -0.7770205180988089 0.44458576386948284 0 0 0 0
480000000 0.010251746590291594 -0.14678339549550826 -0.7491131395155864 0.4516625548471759 0 0 0 0
484000000 0.021244636656805017 -0.18282665809779167 -0.7301488371178153 0.46574430892271046 0 0 0 0
488000000 0.030465546892125526 -0.22439621115397237 -0.711473304851454 0.4813996690443034 0 0 0 0
492000000 0.03847433376694363 -0.27053599671400597 -0.6890177342985399 0.49460320225699145 0 0 0 0
496000000 0.04223055249479983 -0.3172688734939084 -0.6565596781290692 0.5024522350028363 0 0 0 0
500000000 0.04041800884535842 -0.36507163533277115 -0.6169182869985329 0.5079462287616369 0 0 0 0
504000000 0.034139571176957005 -0.4116649834677048 -0.5739481552359998 0.5068188295321665 0 0 0 0
508000000 0.02154708270742752 -0.4538123116636877 -0.5253958640488665 0.5015651094560982 0 0 0 0
512000000 0.0006681302338307754 -0.49840388471374203 -0.4798112492703494 0.4952532170292096 0 0 0 0
516000000 -0.024523194215023265 -0.5560419029961438 -0.44034054846658605 0.4922818307278405 0 0 0 0
520000000 -0.05506606306881517 -0.6079176438803928 -0.39945497255988427 0.4811553249751071 0 0 0 0
524000000 -0.08690573813085344 -0.6532927841821463 -0.36016912638172477 0.4642108931584147 0 0 0 0
528000000 -0.12081734938322788 -0.6910891789450315 -0.32078687665843136 0.44198928067003174 0 0 0 0
532000000 -0.15487901543320412 -0.7153363685869324 -0.2832262054538595 0.414661080816959 0 0 0 0
536000000 -0.18886887062019844 -0.7300998436076451 -0.2482540317721692 0.38455316778550797 0 0 0 0
540000000 -0.22149418446240396 -0.7374285778637392 -0.2167704261441543 0.35273367684042073 0 0 0 0
544000000 -0.2634777656228914 -0.7600423363332934 -0.19069027294407626 0.3284400506974673 0 0 0 0
548000000 -0.300523669737017 -0.7846774163980237 -0.17052811287835004 0.30313855007149193 0 0 0 0
552000000 -0.3334516072406424 -0.8014812111224822 -0.15167539868008523 0.2765892398485408 0 0 0 0
556000000 -0.36130307190917194 -0.8161787189435188 -0.13442106353073321 0.25163416781148334 0 0 0 0
560000000 -0.38383352657297487 -0.8184484551530041 -0.11940891906601962 0.22587756750838864 0 0 0 0
564000000 -0.39900033361279935 -0.8125340354971478 -0.10548651186038781 0.20027399349799146 0 0 0 0
568000000 -0.4122058632316051 -0.8038897903502477 -0.0935447267075552 0.1775646509478403 0 0 0 0
572000000 -0.4299537847544322 -0.7968375228247179 -0.08488105331879929 0.15517755819404622 0 0 0 0
576000000 -0.45283182799982713 -0.8148171488349967 -0.07731064897297876 0.1377759317963499 0 0 0 0
580000000 -0.47298203700583086 -0.8268696066712422 -0.07034903712190542 0.12172549969750229 0 0 0 0
584000000 -0.4838043411695068 -0.8344309700522302 -0.06387918113694328 0.10572111413950802 0 0 0 0
588000000 -0.4878302761103285 -0.8407429773990939 -0.057691106907431476 0.09061881581184628 0 0 0 0
592000000 -0.48897862872019415 -0.8363798319824404 -0.05176194124734124 0.07711907796136777 0 0 0 0
596000000 -0.4878298062724519 -0.8275592333430964 -0.0458209462830208 0.06432748625277204 0 0 0 0
600000000 -0.47732411284386894 -0.8143917139648952 -0.040661995409276175 0.05234839307929688 0 0 0 0
